
**** 11/18/12 20:53:46 *********** Evaluation PSpice (Nov 1999) **************

 *Circuit HW1, problem 1.13*


 ****     CIRCUIT DESCRIPTION


******************************************************************************




R2 N1 N2 40k

R1 N2 N5 60k

V1 N5 0  5V

Rd N5 N4 2k

M1 N4 N2 N3 N3 ntype l=1e-6 w=1e-6 
.model ntype nmos level=2 vto=1 kp=500e-6

Rs N3 N1 1k

V2 0  N1 5V



.op

.end

**** 11/18/12 20:53:46 *********** Evaluation PSpice (Nov 1999) **************

 *Circuit HW1, problem 1.13*


 ****     MOSFET MODEL PARAMETERS


******************************************************************************




               ntype           
               NMOS            
       LEVEL    2            
           L  100.000000E-06 
           W  100.000000E-06 
         VTO    1            
          KP  500.000000E-06 
       GAMMA    0            
         PHI     .6          
      LAMBDA    0            
          IS   10.000000E-15 
          JS    0            
          PB     .8          
        PBSW     .8          
          CJ    0            
        CJSW    0            
        CGSO    0            
        CGDO    0            
        CGBO    0            
         TOX  100.000000E-09 
          XJ    0            
       UCRIT   10.000000E+03 
      DIOMOD    1            
         VFB    0            
        LETA    0            
        WETA    0            
          U0    0            
        TEMP    0            
         VDD    0            
       XPART    0            


**** 11/18/12 20:53:46 *********** Evaluation PSpice (Nov 1999) **************

 *Circuit HW1, problem 1.13*


 ****     SMALL SIGNAL BIAS SOLUTION       TEMPERATURE =   27.000 DEG C


******************************************************************************



 NODE   VOLTAGE     NODE   VOLTAGE     NODE   VOLTAGE     NODE   VOLTAGE


(   N1)   -5.0000  (   N2)   -1.0000  (   N3)   -4.0000  (   N4)    3.0000      

(   N5)    5.0000  




    VOLTAGE SOURCE CURRENTS
    NAME         CURRENT

    V1          -1.100E-03
    V2          -1.100E-03

    TOTAL POWER DISSIPATION   1.10E-02  WATTS


**** 11/18/12 20:53:46 *********** Evaluation PSpice (Nov 1999) **************

 *Circuit HW1, problem 1.13*


 ****     OPERATING POINT INFORMATION      TEMPERATURE =   27.000 DEG C


******************************************************************************






**** MOSFETS


NAME         M1        
MODEL        ntype     
ID           1.00E-03 
VGS          3.00E+00 
VDS          7.00E+00 
VBS          0.00E+00 
VTH          1.00E+00 
VDSAT        2.00E+00 
Lin0/Sat1   -1.00E+00 
if          -1.00E+00 
ir          -1.00E+00 
TAU         -1.00E+00 
GM           1.00E-03 
GDS          0.00E+00 
GMB          0.00E+00 
CBD          0.00E+00 
CBS          0.00E+00 
CGSOV        0.00E+00 
CGDOV        0.00E+00 
CGBOV        0.00E+00 
CGS          2.30E-16 
CGD          0.00E+00 
CGB          0.00E+00 

          JOB CONCLUDED

          TOTAL JOB TIME            0.00
