
**** 12/12/13 16:30:10 ****** PSpice 16.5.0 (April 2011) ****** ID# 0 ********

 * Circuit Extracted by Tanner Research's L-Edit V7.12 / Extract V4.00 ;


 ****     CIRCUIT DESCRIPTION


******************************************************************************



* TDB File:  C:\Users\fenn3804\Desktop\Ledit\CreightonsAttempt, Cell:  inv
* Extract Definition File:  C:\Users\fenn3804\Desktop\Ledit\template.ext
* Extract Date and Time:  12/12/2013 - 15:47

.include 2um_CMOS.modlib

**** INCLUDING 2um_CMOS.modlib ****
* 2um Process MOSFET Transistor Model for ECE321 Project

.MODEL CMOSN NMOS LEVEL=3 PHI=0.600000 TOX=2.1200E-08 XJ=0.200000U   
+TPG=1 VTO=0.7860 DELTA=6.9670E-01 LD=1.6470E-07 KP=9.6379E-05
+UO=591.7 THETA=8.1220E-02 RSH=8.5450E+01 GAMMA=0.5863
+NSUB=2.7470E+16 NFS=1.98E+12 VMAX=1.7330E+05 ETA=4.3680E-02
+KAPPA=1.3960E-01 CGDO=4.0241E-10 CGSO=4.0241E-10
+CGBO=3.6144E-10 CJ=3.8541E-04 MJ=1.1854 CJSW=1.3940E-10
+MJSW=0.125195 PB=0.800000

.MODEL CMOSP PMOS LEVEL=3 PHI=0.600000 TOX=2.1200E-08 XJ=0.200000U 
+TPG=-1 VTO=-0.9056 DELTA=1.5200E+00 LD=2.2000E-08 KP=2.9352E-05
+UO=180.2 THETA=1.2480E-01 RSH=1.0470E+02 GAMMA=0.4863
+NSUB=1.8900E+16 NFS=3.46E+12 VMAX=3.7320E+05 ETA=1.6410E-01
+KAPPA=9.6940E+00 CGDO=5.3752E-11 CGSO=5.3752E-11
+CGBO=3.3650E-10 CJ=4.8447E-04 MJ=0.5027 CJSW=1.6457E-10
+MJSW=0.217168 PB=0.850000

**** RESUMING CreightonsAttempt.cir ****
Vdd 1 0 dc 5v

Vina 3 0 pwl(0ns,0v,
+480ns,0v,480.001ns,5v,
+640ns,5v,640.001ns,0v,
+800ns,0v,800.001ns,5v,
+960ns,5v,960.001ns,0v,
+1280ns,0v,1280.001ns,5v,
+1440ns,5v,1440.001ns,0v,
+1600ns,0v,1600.001ns,5v,
+1760ns,5v,1760.001ns,0v,
+1920ns,0v,1920.001ns,5v,
+2400ns,5v)

Vinb 5 0 pwl(0ns,0v,
+160ns,0v,160.001ns,5v,
+320ns,5v,320.001ns,0v,
+800ns,0v,800.001ns,5v,
+960ns,5v,960.001ns,0v,
+1120ns,0v,1120.001ns,5v,
+1600ns,5v,1600.001ns,0v,
+1760ns,0v,1760.001ns,5v,
+1920ns,5v,1920.001ns,0v,
+2080ns,0v,2080.001ns,5v,
+2240ns,5v,2240.001ns,0v,
+2400ns,0v)

* NODE NAME ALIASES

*R1 3 0 .00001k
*R2 5 0 .00001k

* NODE NAME ALIASES

CL 4 0 500fF
M1 6 7 4 1 CMOSP L=2u W=5u AD=115p PD=86u AS=55p PS=42u 
* M1 DRAIN GATE SOURCE BULK (30 50.5 32 55.5) 
M2 1 3 7 1 CMOSP L=2u W=5u AD=160p PD=104u AS=27.5p PS=21u 
* M2 DRAIN GATE SOURCE BULK (12 50.5 14 55.5) 
M3 6 3 1 1 CMOSP L=2u W=5u AD=115p PD=86u AS=160p PS=104u 
* M3 DRAIN GATE SOURCE BULK (33 74 38 76) 
M4 1 5 8 1 CMOSP L=2u W=5u AD=160p PD=104u AS=27.5p PS=21u 
* M4 DRAIN GATE SOURCE BULK (68 50.5 70 55.5) 
M5 6 5 1 1 CMOSP L=2u W=5u AD=115p PD=86u AS=160p PS=104u 
* M5 DRAIN GATE SOURCE BULK (53 74 58 76) 
M6 6 8 4 1 CMOSP L=2u W=5u AD=115p PD=86u AS=55p PS=42u 
* M6 DRAIN GATE SOURCE BULK (50 50.5 52 55.5) 
M7 10 7 4 0 CMOSN L=2u W=5u AD=57.5p PD=43u AS=55p PS=42u 
* M7 DRAIN GATE SOURCE BULK (30 34.5 32 39.5) 
M8 9 3 4 0 CMOSN L=2u W=5u AD=57.5p PD=43u AS=55p PS=42u 
* M8 DRAIN GATE SOURCE BULK (50.5 34.5 52.5 39.5) 
M9 0 3 7 0 CMOSN L=2u W=5u AD=160p PD=104u AS=27.5p PS=21u 
* M9 DRAIN GATE SOURCE BULK (12 34.5 14 39.5) 
M10 0 5 8 0 CMOSN L=2u W=5u AD=160p PD=104u AS=27.5p PS=21u 
* M10 DRAIN GATE SOURCE BULK (68 34.5 70 39.5) 
M11 9 5 0 0 CMOSN L=2u W=5u AD=57.5p PD=43u AS=160p PS=104u 
* M11 DRAIN GATE SOURCE BULK (53.5 15.5 58.5 17.5) 
M12 10 8 0 0 CMOSN L=2u W=5u AD=57.5p PD=43u AS=160p PS=104u 
* M12 DRAIN GATE SOURCE BULK (33 15.5 38 17.5) 

* Total Nodes: 10
* Total Elements: 12
* Extract Elapsed Time: 0 seconds
.op
.probe
.tran 100ps 2.4us
.END

**** 12/12/13 16:30:10 ****** PSpice 16.5.0 (April 2011) ****** ID# 0 ********

 * Circuit Extracted by Tanner Research's L-Edit V7.12 / Extract V4.00 ;


 ****     MOSFET MODEL PARAMETERS


******************************************************************************




               CMOSN           CMOSP           
               NMOS            PMOS            
       LEVEL    3               3            
         TPG                   -1            
           L  100.000000E-06  100.000000E-06 
           W  100.000000E-06  100.000000E-06 
          LD  164.700000E-09   22.000000E-09 
         VTO     .786           -.9056       
          KP   96.379000E-06   29.352000E-06 
       GAMMA     .5863           .4863       
         PHI     .6              .6          
      LAMBDA    0               0            
         RSH   85.45          104.7          
          IS   10.000000E-15   10.000000E-15 
          JS    0               0            
          PB     .8              .85         
        PBSW     .8              .85         
          CJ  385.410000E-06  484.470000E-06 
        CJSW  139.400000E-12  164.570000E-12 
          MJ    1.1854           .5027       
        MJSW     .125195         .217168     
        CGSO  402.410000E-12   53.752000E-12 
        CGDO  402.410000E-12   53.752000E-12 
        CGBO  361.440000E-12  336.500000E-12 
        NSUB   27.470000E+15   18.900000E+15 
         NFS    1.980000E+12    3.460000E+12 
         TOX   21.200000E-09   21.200000E-09 
          XJ  200.000000E-09  200.000000E-09 
          UO  591.7           180.2          
       UCRIT   10.000000E+03   10.000000E+03 
        VMAX  173.300000E+03  373.200000E+03 
       DELTA     .6967          1.52         
       THETA     .08122          .1248       
         ETA     .04368          .1641       
       KAPPA     .1396          9.694        
      DIOMOD    1               1            
         VFB    0               0            
        LETA    0               0            
        WETA    0               0            
          U0    0               0            
        TEMP    0               0            
         VDD    5               5            
       XPART    0               0            


**** 12/12/13 16:30:10 ****** PSpice 16.5.0 (April 2011) ****** ID# 0 ********

 * Circuit Extracted by Tanner Research's L-Edit V7.12 / Extract V4.00 ;


 ****     SMALL SIGNAL BIAS SOLUTION       TEMPERATURE =   27.000 DEG C


******************************************************************************



 NODE   VOLTAGE     NODE   VOLTAGE     NODE   VOLTAGE     NODE   VOLTAGE


(    1)    5.0000  (    3)    0.0000  (    4) 778.4E-09  (    5)    0.0000      

(    6)    5.0000  (    7)    5.0000  (    8)    5.0000  (    9) 388.8E-09      

(   10) 389.2E-09  




    VOLTAGE SOURCE CURRENTS
    NAME         CURRENT

    Vdd         -4.765E-10
    Vina         0.000E+00
    Vinb         0.000E+00

    TOTAL POWER DISSIPATION   2.38E-09  WATTS


**** 12/12/13 16:30:10 ****** PSpice 16.5.0 (April 2011) ****** ID# 0 ********

 * Circuit Extracted by Tanner Research's L-Edit V7.12 / Extract V4.00 ;


 ****     OPERATING POINT INFORMATION      TEMPERATURE =   27.000 DEG C


******************************************************************************






**** MOSFETS


NAME         M1          M2          M3          M4          M5        
MODEL        CMOSP       CMOSP       CMOSP       CMOSP       CMOSP     
ID           1.72E-10    6.13E-11   -1.72E-10    6.13E-11   -1.72E-10 
VGS          5.00E+00   -5.00E+00   -5.00E+00   -5.00E+00   -5.00E+00 
VDS          5.00E+00    3.01E-07   -8.44E-07    3.01E-07   -8.44E-07 
VBS          5.00E+00    3.01E-07    0.00E+00    3.01E-07    0.00E+00 
VTH         -9.63E-01   -1.02E+00   -1.02E+00   -1.02E+00   -1.02E+00 
VDSAT       -1.03E-01   -3.39E+00   -3.39E+00   -3.39E+00   -3.39E+00 
Lin0/Sat1   -1.00E+00   -1.00E+00   -1.00E+00   -1.00E+00   -1.00E+00 
if          -1.00E+00   -1.00E+00   -1.00E+00   -1.00E+00   -1.00E+00 
ir          -1.00E+00   -1.00E+00   -1.00E+00   -1.00E+00   -1.00E+00 
TAU         -1.00E+00   -1.00E+00   -1.00E+00   -1.00E+00   -1.00E+00 
GM           1.41E-09    9.88E-12    2.77E-11    9.88E-12    2.77E-11 
GDS          1.57E-11    2.04E-04    2.04E-04    2.04E-04    2.04E-04 
GMB          4.99E-10    4.54E-12    1.27E-11    4.54E-12    1.27E-11 
CBD          6.99E-14    9.46E-14    6.99E-14    9.46E-14    6.99E-14 
CBS          1.47E-14    1.68E-14    9.46E-14    1.68E-14    9.46E-14 
CGSOV        2.69E-16    2.69E-16    2.69E-16    2.69E-16    2.69E-16 
CGDOV        2.69E-16    2.69E-16    2.69E-16    2.69E-16    2.69E-16 
CGBOV        6.58E-16    6.58E-16    6.58E-16    6.58E-16    6.58E-16 
CGS          0.00E+00    7.97E-15    7.97E-15    7.97E-15    7.97E-15 
CGD          0.00E+00    7.97E-15    7.97E-15    7.97E-15    7.97E-15 
CGB          1.07E-14    0.00E+00    0.00E+00    0.00E+00    0.00E+00 

NAME         M6          M7          M8          M9          M10       
MODEL        CMOSP       CMOSN       CMOSN       CMOSN       CMOSN     
ID           1.72E-10   -3.54E-10   -4.64E-16   -5.63E-11   -5.63E-11 
VGS          5.00E+00    5.00E+00   -7.78E-07   -5.00E+00   -5.00E+00 
VDS          5.00E+00   -3.89E-07   -3.90E-07   -5.00E+00   -5.00E+00 
VBS          5.00E+00   -7.78E-07   -7.78E-07   -5.00E+00   -5.00E+00 
VTH         -9.63E-01    8.50E-01    8.50E-01    8.26E-01    8.26E-01 
VDSAT       -1.03E-01    2.66E+00    7.13E-02    7.13E-02    7.13E-02 
Lin0/Sat1   -1.00E+00   -1.00E+00   -1.00E+00   -1.00E+00   -1.00E+00 
if          -1.00E+00   -1.00E+00   -1.00E+00   -1.00E+00   -1.00E+00 
ir          -1.00E+00   -1.00E+00   -1.00E+00   -1.00E+00   -1.00E+00 
TAU         -1.00E+00   -1.00E+00   -1.00E+00   -1.00E+00   -1.00E+00 
GM           1.41E-09    6.21E-11    5.43E-15    6.67E-10    6.67E-10 
GDS          1.57E-11    9.09E-04    1.19E-09    3.27E-12    3.27E-12 
GMB          4.99E-10    2.92E-11    2.34E-15    2.81E-10    2.81E-10 
CBD          6.99E-14    2.82E-14    2.82E-14    7.62E-14    7.62E-14 
CBS          1.47E-14    2.71E-14    2.71E-14    3.30E-15    3.30E-15 
CGSOV        2.69E-16    2.01E-15    2.01E-15    2.01E-15    2.01E-15 
CGDOV        2.69E-16    2.01E-15    2.01E-15    2.01E-15    2.01E-15 
CGBOV        6.58E-16    6.04E-16    6.04E-16    6.04E-16    6.04E-16 
CGS          0.00E+00    6.80E-15    0.00E+00    0.00E+00    0.00E+00 
CGD          0.00E+00    6.80E-15    0.00E+00    0.00E+00    0.00E+00 
CGB          1.07E-14    0.00E+00    6.70E-15    6.70E-15    6.70E-15 

NAME         M11         M12       
MODEL        CMOSN       CMOSN     
ID           4.64E-16    3.54E-10 
VGS          0.00E+00    5.00E+00 
VDS          3.89E-07    3.89E-07 
VBS          0.00E+00    0.00E+00 
VTH          8.50E-01    8.50E-01 
VDSAT        7.13E-02    2.66E+00 
Lin0/Sat1   -1.00E+00   -1.00E+00 
if          -1.00E+00   -1.00E+00 
ir          -1.00E+00   -1.00E+00 
TAU         -1.00E+00   -1.00E+00 
GM           5.42E-15    6.21E-11 
GDS          1.19E-09    9.09E-04 
GMB          2.34E-15    2.92E-11 
CBD          2.82E-14    2.82E-14 
CBS          7.62E-14    7.62E-14 
CGSOV        2.01E-15    2.01E-15 
CGDOV        2.01E-15    2.01E-15 
CGBOV        6.04E-16    6.04E-16 
CGS          0.00E+00    6.80E-15 
CGD          0.00E+00    6.80E-15 
CGB          6.70E-15    0.00E+00 
**** 12/12/13 16:30:10 ****** PSpice 16.5.0 (April 2011) ****** ID# 0 ********

 * Circuit Extracted by Tanner Research's L-Edit V7.12 / Extract V4.00 ;


 ****     INITIAL TRANSIENT SOLUTION       TEMPERATURE =   27.000 DEG C


******************************************************************************



 NODE   VOLTAGE     NODE   VOLTAGE     NODE   VOLTAGE     NODE   VOLTAGE


(    1)    5.0000  (    3)    0.0000  (    4) 778.4E-09  (    5)    0.0000      

(    6)    5.0000  (    7)    5.0000  (    8)    5.0000  (    9) 388.8E-09      

(   10) 389.2E-09  




    VOLTAGE SOURCE CURRENTS
    NAME         CURRENT

    Vdd         -4.765E-10
    Vina         0.000E+00
    Vinb         0.000E+00

    TOTAL POWER DISSIPATION   2.38E-09  WATTS



          JOB CONCLUDED

**** 12/12/13 16:30:10 ****** PSpice 16.5.0 (April 2011) ****** ID# 0 ********

 * Circuit Extracted by Tanner Research's L-Edit V7.12 / Extract V4.00 ;


 ****     JOB STATISTICS SUMMARY


******************************************************************************



  Total job time (using Solver 1)   =         .13
