Circuit: *

Instance "m1": Length shorter than recommended for a level 2 MOSFET.
Instance "m1": Width narrower than recommended for a level 2 MOSFET.
Direct Newton iteration for .op point succeeded.
Semiconductor Device Operating Points:
                        --- MOSFET Transistors ---
Name:          m1
Model:        ntype
Id:          1.14e-03
Vgs:         2.32e+00
Vds:         6.15e-01
Vbs:         0.00e+00
Vth:         1.00e+00
Vdsat:       1.32e+00
Gm:          1.12e-03
Gds:         1.28e-03
Gmb:         0.00e+00
Cbd:         0.00e+00
Cbs:         0.00e+00
Cgsov:       0.00e+00
Cgdov:       0.00e+00
Cgbov:       0.00e+00
Cgs:         2.02e-16
Cgd:         1.32e-16
Cgb:         0.00e+00



Date: Sun Nov 18 20:42:54 2012
Total elapsed time: 0.352 seconds.

tnom = 27
temp = 27
method = trap
totiter = 5
traniter = 0
tranpoints = 0
accept = 0
rejected = 0
matrix size = 4
fillins = 0
solver = Normal
Matrix Compiler1: 118 bytes object code size
Matrix Compiler2: 282 bytes object code size

